
T317C 000:301 SEGGER J-Link V4.98e Log File (0001ms, 0276ms total)
T317C 000:301 DLL Compiled: May  5 2015 11:00:52 (0001ms, 0276ms total)
T317C 000:301 Logging started @ 2016-03-02 19:56 (0001ms, 0276ms total)
T317C 000:302 JLINK_SetWarnOutHandler(...) (0000ms, 0276ms total)
T317C 000:302 JLINK_OpenEx(...)
Firmware: J-Link V9 compiled Apr 21 2015 18:10:40
Hardware: V9.10
S/N: 59100875
Feature(s): GDB, RDI, FlashBP, FlashDL, JFlash  returns O.K. (0275ms, 0551ms total)
T317C 000:577 JLINK_SetErrorOutHandler(...) (0000ms, 0551ms total)
T317C 000:577 JLINK_ExecCommand("ProjectFile = "E:\_07_TM4C\_03_MyWork\_01_Template Project\_16\JLinkSettings.ini"", ...)  returns 0x00 (0002ms, 0553ms total)
T317C 000:581 JLINK_ExecCommand("Device = TM4C123GH6PZ", ...)Device "TM4C123GH6PZ" selected.  returns 0x00 (0004ms, 0557ms total)
T317C 000:585 JLINK_ExecCommand("DisableConnectionTimeout", ...)  returns 0x01 (0000ms, 0557ms total)
T317C 000:585 JLINK_GetHardwareVersion()  returns 0x16378 (0000ms, 0557ms total)
T317C 000:585 JLINK_GetDLLVersion()  returns 49805 (0000ms, 0557ms total)
T317C 000:585 JLINK_GetFirmwareString(...) (0000ms, 0557ms total)
T317C 000:598 JLINK_GetDLLVersion()  returns 49805 (0000ms, 0557ms total)
T317C 000:598 JLINK_GetCompileDateTime() (0000ms, 0557ms total)
T317C 000:618 JLINK_GetFirmwareString(...) (0000ms, 0557ms total)
T317C 000:621 JLINK_GetHardwareVersion()  returns 0x16378 (0000ms, 0557ms total)
T317C 000:635 JLINK_TIF_Select(JLINKARM_TIF_JTAG)  returns 0x00 (0003ms, 0560ms total)
T317C 000:638 JLINK_SetSpeed(5000) (0001ms, 0561ms total)
T317C 000:639 JLINK_GetIdData(...) >0x2F8 JTAG>TotalIRLen = 4, IRPrint = 0x01 >0x30 JTAG> >0x210 JTAG> >0x70 JTAG> >0x40 JTAG> >0x40 JTAG> >0x40 JTAG> >0x48 JTAG> >0x78 JTAG> >0x40 JTAG> >0x30 JTAG> >0x40 JTAG> >0x40 JTAG> >0x30 JTAG> >0x40 JTAG> >0x48 JTAG>Found Cortex-M4 r0p1, Little endian. -- CPU_WriteMem(4 bytes @ 0xE0002000) -- CPU_ReadMem(4 bytes @ 0xE000EDF0) -- CPU_ReadMem(4 bytes @ 0xE0002000)FPUnit: 6 code (BP) slots and 2 literal slots -- CPU_ReadMem(4 bytes @ 0xE000EDFC)
 -- CPU_ReadMem(4 bytes @ 0xE0001000) -- CPU_WriteMem(4 bytes @ 0xE0001000) -- CPU_ReadMem(4 bytes @ 0xE000ED88) -- CPU_WriteMem(4 bytes @ 0xE000ED88) -- CPU_ReadMem(4 bytes @ 0xE000ED88) -- CPU_WriteMem(4 bytes @ 0xE000ED88)CoreSight components:ROMTbl 0 @ E00FF000 -- CPU_ReadMem(16 bytes @ 0xE00FF000) -- CPU_ReadMem(16 bytes @ 0xE000EFF0) -- CPU_ReadMem(16 bytes @ 0xE000EFE0)ROMTbl 0 [0]: FFF0F000, CID: B105E00D, PID: 000BB00C SCS -- CPU_ReadMem(16 bytes @ 0xE0001FF0)
 -- CPU_ReadMem(16 bytes @ 0xE0001FE0)ROMTbl 0 [1]: FFF02000, CID: B105E00D, PID: 003BB002 DWT -- CPU_ReadMem(16 bytes @ 0xE0002FF0) -- CPU_ReadMem(16 bytes @ 0xE0002FE0)ROMTbl 0 [2]: FFF03000, CID: B105E00D, PID: 002BB003 FPB -- CPU_ReadMem(16 bytes @ 0xE0000FF0) -- CPU_ReadMem(16 bytes @ 0xE0000FE0)ROMTbl 0 [3]: FFF01000, CID: B105E00D, PID: 003BB001 ITM -- CPU_ReadMem(16 bytes @ 0xE00FF010) -- CPU_ReadMem(16 bytes @ 0xE0040FF0) -- CPU_ReadMem(16 bytes @ 0xE0040FE0)
ROMTbl 0 [4]: FFF41000, CID: B105900D, PID: 000BB9A1 TPIU -- CPU_ReadMem(16 bytes @ 0xE0041FF0) -- CPU_ReadMem(16 bytes @ 0xE0041FE0)ROMTbl 0 [5]: FFF42000, CID: B105900D, PID: 000BB925 ETM -- CPU is running -- CPU_ReadMem(4 bytes @ 0x400FE0F0) ScanLen=4 NumDevices=1 aId[0]=0x4BA00477 aIrRead[0]=0 aScanLen[0]=0 aScanRead[0]=0 (0068ms, 0629ms total)
T317C 000:707 JLINK_JTAG_GetDeviceID(DeviceIndex = 0)  returns 0x4BA00477 (0000ms, 0629ms total)
T317C 000:707 JLINK_JTAG_GetDeviceInfo(DeviceIndex = 0)  returns 0x00 (0000ms, 0629ms total)
T317C 000:707 JLINK_GetDLLVersion()  returns 49805 (0000ms, 0629ms total)
T317C 000:707 JLINK_CORE_GetFound()  returns 0xE0000FF (0000ms, 0629ms total)
T317C 000:707 JLINK_GetDebugInfo(0x100) -- Value=0xE00FF003  returns 0x00 (0000ms, 0629ms total)
T317C 000:709 JLINK_ReadMem (0xE00FF000, 0x0020 Bytes, ...) -- CPU is running -- CPU_ReadMem(32 bytes @ 0xE00FF000) - Data: 03 F0 F0 FF 03 20 F0 FF 03 30 F0 FF 03 10 F0 FF ...  returns 0x00 (0001ms, 0630ms total)
T317C 000:710 JLINK_ReadMem (0xE000EFF0, 0x0010 Bytes, ...) -- CPU is running -- CPU_ReadMem(16 bytes @ 0xE000EFF0) - Data: 0D 00 00 00 E0 00 00 00 05 00 00 00 B1 00 00 00  returns 0x00 (0001ms, 0631ms total)
T317C 000:711 JLINK_ReadMem (0xE000EFD0, 0x0020 Bytes, ...) -- CPU is running -- CPU_ReadMem(32 bytes @ 0xE000EFD0) - Data: 04 00 00 00 00 00 00 00 00 00 00 00 00 00 00 00 ...  returns 0x00 (0000ms, 0631ms total)
T317C 000:711 JLINK_ReadMem (0xE0001FF0, 0x0010 Bytes, ...) -- CPU is running -- CPU_ReadMem(16 bytes @ 0xE0001FF0) - Data: 0D 00 00 00 E0 00 00 00 05 00 00 00 B1 00 00 00  returns 0x00 (0001ms, 0632ms total)
T317C 000:712 JLINK_ReadMem (0xE0001FD0, 0x0020 Bytes, ...) -- CPU is running -- CPU_ReadMem(32 bytes @ 0xE0001FD0) - Data: 04 00 00 00 00 00 00 00 00 00 00 00 00 00 00 00 ...  returns 0x00 (0001ms, 0633ms total)
T317C 000:713 JLINK_ReadMem (0xE0002FF0, 0x0010 Bytes, ...) -- CPU is running -- CPU_ReadMem(16 bytes @ 0xE0002FF0) - Data: 0D 00 00 00 E0 00 00 00 05 00 00 00 B1 00 00 00  returns 0x00 (0001ms, 0634ms total)
T317C 000:714 JLINK_ReadMem (0xE0002FD0, 0x0020 Bytes, ...) -- CPU is running -- CPU_ReadMem(32 bytes @ 0xE0002FD0) - Data: 04 00 00 00 00 00 00 00 00 00 00 00 00 00 00 00 ...  returns 0x00 (0001ms, 0635ms total)
T317C 000:715 JLINK_ReadMem (0xE0000FF0, 0x0010 Bytes, ...) -- CPU is running -- CPU_ReadMem(16 bytes @ 0xE0000FF0) - Data: 0D 00 00 00 E0 00 00 00 05 00 00 00 B1 00 00 00  returns 0x00 (0001ms, 0636ms total)
T317C 000:716 JLINK_ReadMem (0xE0000FD0, 0x0020 Bytes, ...) -- CPU is running -- CPU_ReadMem(32 bytes @ 0xE0000FD0) - Data: 04 00 00 00 00 00 00 00 00 00 00 00 00 00 00 00 ...  returns 0x00 (0001ms, 0637ms total)
T317C 000:717 JLINK_ReadMem (0xE0040FF0, 0x0010 Bytes, ...) -- CPU is running -- CPU_ReadMem(16 bytes @ 0xE0040FF0) - Data: 0D 00 00 00 90 00 00 00 05 00 00 00 B1 00 00 00  returns 0x00 (0001ms, 0638ms total)
T317C 000:718 JLINK_ReadMem (0xE0040FD0, 0x0020 Bytes, ...) -- CPU is running -- CPU_ReadMem(32 bytes @ 0xE0040FD0) - Data: 04 00 00 00 00 00 00 00 00 00 00 00 00 00 00 00 ...  returns 0x00 (0000ms, 0638ms total)
T317C 000:718 JLINK_ReadMem (0xE0041FF0, 0x0010 Bytes, ...) -- CPU is running -- CPU_ReadMem(16 bytes @ 0xE0041FF0) - Data: 0D 00 00 00 90 00 00 00 05 00 00 00 B1 00 00 00  returns 0x00 (0001ms, 0639ms total)
T317C 000:719 JLINK_ReadMem (0xE0041FD0, 0x0020 Bytes, ...) -- CPU is running -- CPU_ReadMem(32 bytes @ 0xE0041FD0) - Data: 04 00 00 00 00 00 00 00 00 00 00 00 00 00 00 00 ...  returns 0x00 (0002ms, 0641ms total)
T317C 000:721 JLINK_ReadMemU32(0xE000EF40, 0x0001 Items, ...) -- CPU is running -- CPU_ReadMem(4 bytes @ 0xE000EF40) - Data: 21 00 11 10  returns 0x01 (0001ms, 0642ms total)
T317C 000:722 JLINK_ReadMemU32(0xE000EF44, 0x0001 Items, ...) -- CPU is running -- CPU_ReadMem(4 bytes @ 0xE000EF44) - Data: 11 00 00 11  returns 0x01 (0001ms, 0643ms total)
T317C 000:723 JLINK_ReadMemU32(0xE000ED00, 0x0001 Items, ...) -- CPU is running -- CPU_ReadMem(4 bytes @ 0xE000ED00) - Data: 41 C2 0F 41  returns 0x01 (0001ms, 0644ms total)
T317C 000:724 JLINK_SetResetType(JLINKARM_RESET_TYPE_NORMAL)  returns JLINKARM_RESET_TYPE_NORMAL (0000ms, 0644ms total)
T317C 000:724 JLINK_Reset() -- CPU is running -- CPU_WriteMem(4 bytes @ 0xE000EDF0) -- CPU is running -- CPU_WriteMem(4 bytes @ 0xE000EDFC) -- CPU is running -- CPU_WriteMem(4 bytes @ 0xE000ED0C) -- CPU is running -- CPU_ReadMem(4 bytes @ 0xE000EDF0) -- CPU is running -- CPU_ReadMem(4 bytes @ 0xE000EDF0) -- CPU is running -- CPU_WriteMem(4 bytes @ 0xE000EDF0) -- CPU is running -- CPU_WriteMem(4 bytes @ 0xE000EDFC) -- CPU is running -- CPU_ReadMem(4 bytes @ 0xE000EDF0) >0x78 JTAG> >0x40 JTAG> >0x30 JTAG>
 >0x40 JTAG> >0x48 JTAG> >0x40 JTAG> -- CPU_WriteMem(4 bytes @ 0xE000EDFC) -- CPU_WriteMem(4 bytes @ 0xE0001028) -- CPU_WriteMem(4 bytes @ 0xE0001038) -- CPU_WriteMem(4 bytes @ 0xE0001048) -- CPU_WriteMem(4 bytes @ 0xE0001058) -- CPU_ReadMem(4 bytes @ 0x400FE0F0) -- CPU_WriteMem(4 bytes @ 0xE0002000) -- CPU_ReadMem(4 bytes @ 0xE000EDFC) -- CPU_ReadMem(4 bytes @ 0xE0001000) (0029ms, 0673ms total)
T317C 000:753 JLINK_Halt()  returns 0x00 (0000ms, 0673ms total)
T317C 000:753 JLINK_IsHalted()  returns TRUE (0000ms, 0673ms total)
T317C 000:753 JLINK_ReadMemU32(0xE000EDF0, 0x0001 Items, ...) -- CPU_ReadMem(4 bytes @ 0xE000EDF0) - Data: 03 00 03 00  returns 0x01 (0001ms, 0674ms total)
T317C 000:754 JLINK_WriteU32(0xE000EDF0, 0xA05F0003) -- CPU_WriteMem(4 bytes @ 0xE000EDF0)  returns 0x00 (0001ms, 0675ms total)
T317C 000:755 JLINK_WriteU32(0xE000EDFC, 0x01000000) -- CPU_WriteMem(4 bytes @ 0xE000EDFC)  returns 0x00 (0001ms, 0676ms total)
T317C 000:763 JLINK_GetHWStatus(...)  returns 0x00 (0001ms, 0677ms total)
T317C 000:772 JLINK_GetNumBPUnits(Type = 0xFFFFFF00)  returns 0x06 (0000ms, 0677ms total)
T317C 000:772 JLINK_GetNumBPUnits(Type = 0xF0)  returns 0x2000 (0000ms, 0677ms total)
T317C 000:772 JLINK_GetNumWPUnits()  returns 0x04 (0000ms, 0677ms total)
T317C 000:781 JLINK_GetSpeed()  returns 0x1388 (0000ms, 0677ms total)
T317C 000:785 JLINK_ReadMemU32(0xE000E004, 0x0001 Items, ...) -- CPU_ReadMem(4 bytes @ 0xE000E004) - Data: 04 00 00 00  returns 0x01 (0001ms, 0678ms total)
T317C 000:786 JLINK_ReadMemU32(0xE000E004, 0x0001 Items, ...) -- CPU_ReadMem(4 bytes @ 0xE000E004) - Data: 04 00 00 00  returns 0x01 (0001ms, 0679ms total)
T317C 000:787 JLINK_WriteMem(0xE0001000, 0x001C Bytes, ...) - Data: 01 00 00 00 00 00 00 00 00 00 00 00 00 00 00 00 ... -- CPU_WriteMem(28 bytes @ 0xE0001000)  returns 0x1C (0002ms, 0681ms total)
T317C 000:789 JLINK_ReadMem (0xE0001000, 0x001C Bytes, ...) -- CPU_ReadMem(28 bytes @ 0xE0001000) - Data: 01 00 00 40 00 00 00 00 00 00 00 00 00 00 00 00 ...  returns 0x00 (0001ms, 0682ms total)
T317C 000:790 JLINK_Halt()  returns 0x00 (0000ms, 0682ms total)
T317C 000:790 JLINK_IsHalted()  returns TRUE (0000ms, 0682ms total)
T317C 000:793 JLINK_WriteMem(0x20000000, 0x0128 Bytes, ...) - Data: 00 BE 0A E0 0D 78 2D 06 68 40 08 24 40 00 00 D3 ... -- CPU_WriteMem(296 bytes @ 0x20000000)  returns 0x128 (0003ms, 0685ms total)
T317C 000:796 JLINK_WriteReg(R0, 0x00000000)  returns 0x00 (0000ms, 0685ms total)
T317C 000:796 JLINK_WriteReg(R1, 0x00B71B00)  returns 0x00 (0000ms, 0685ms total)
T317C 000:796 JLINK_WriteReg(R2, 0x00000001)  returns 0x00 (0000ms, 0685ms total)
T317C 000:796 JLINK_WriteReg(R3, 0x00000000)  returns 0x00 (0000ms, 0685ms total)
T317C 000:796 JLINK_WriteReg(R4, 0x00000000)  returns 0x00 (0000ms, 0685ms total)
T317C 000:797 JLINK_WriteReg(R5, 0x00000000)  returns 0x00 (0000ms, 0686ms total)
T317C 000:797 JLINK_WriteReg(R6, 0x00000000)  returns 0x00 (0000ms, 0686ms total)
T317C 000:797 JLINK_WriteReg(R7, 0x00000000)  returns 0x00 (0000ms, 0686ms total)
T317C 000:797 JLINK_WriteReg(R8, 0x00000000)  returns 0x00 (0000ms, 0686ms total)
T317C 000:797 JLINK_WriteReg(R9, 0x20000124)  returns 0x00 (0000ms, 0686ms total)
T317C 000:797 JLINK_WriteReg(R10, 0x00000000)  returns 0x00 (0000ms, 0686ms total)
T317C 000:797 JLINK_WriteReg(R11, 0x00000000)  returns 0x00 (0000ms, 0686ms total)
T317C 000:797 JLINK_WriteReg(R12, 0x00000000)  returns 0x00 (0000ms, 0686ms total)
T317C 000:797 JLINK_WriteReg(R13 (SP), 0x20001000)  returns 0x00 (0000ms, 0686ms total)
T317C 000:797 JLINK_WriteReg(R14, 0x20000001)  returns 0x00 (0000ms, 0686ms total)
T317C 000:797 JLINK_WriteReg(R15 (PC), 0x20000038)  returns 0x00 (0000ms, 0686ms total)
T317C 000:797 JLINK_WriteReg(XPSR, 0x01000000)  returns 0x00 (0000ms, 0686ms total)
T317C 000:797 JLINK_WriteReg(MSP, 0x20001000)  returns 0x00 (0000ms, 0686ms total)
T317C 000:797 JLINK_WriteReg(PSP, 0x20001000)  returns 0x00 (0000ms, 0686ms total)
T317C 000:797 JLINK_WriteReg(CFBP, 0x00000000)  returns 0x00 (0000ms, 0686ms total)
T317C 000:797 JLINK_SetBPEx(Addr = 0x20000000, Type = 0xFFFFFFF2) -- CPU_ReadMem(2 bytes @ 0x20000000)  returns 0x00000001 (0001ms, 0687ms total)
T317C 000:798 JLINK_Go() -- CPU_WriteMem(2 bytes @ 0x20000000) -- CPU_ReadMem(4 bytes @ 0xE0001000) -- CPU_WriteMem(4 bytes @ 0xE0002008) -- CPU_WriteMem(4 bytes @ 0xE000200C) -- CPU_WriteMem(4 bytes @ 0xE0002010) -- CPU_WriteMem(4 bytes @ 0xE0002014) -- CPU_WriteMem(4 bytes @ 0xE0002018) -- CPU_WriteMem(4 bytes @ 0xE000201C) -- CPU_WriteMem(4 bytes @ 0xE0001004) (0005ms, 0692ms total)
T317C 000:803 JLINK_IsHalted() -- CPU_ReadMem(2 bytes @ 0x20000000)  returns TRUE (0004ms, 0696ms total)
T317C 000:807 JLINK_ReadReg(R15 (PC))  returns 0x20000000 (0000ms, 0692ms total)
T317C 000:807 JLINK_ClrBPEx(BPHandle = 0x00000001)  returns 0x00 (0000ms, 0692ms total)
T317C 000:807 JLINK_ReadReg(R0)  returns 0x00000000 (0000ms, 0692ms total)
T317C 000:807 JLINK_WriteReg(R0, 0x00000000)  returns 0x00 (0000ms, 0692ms total)
T317C 000:807 JLINK_WriteReg(R1, 0x00000400)  returns 0x00 (0000ms, 0692ms total)
T317C 000:807 JLINK_WriteReg(R2, 0x000000FF)  returns 0x00 (0000ms, 0692ms total)
T317C 000:807 JLINK_WriteReg(R3, 0x00000000)  returns 0x00 (0000ms, 0692ms total)
T317C 000:807 JLINK_WriteReg(R4, 0x00000000)  returns 0x00 (0000ms, 0692ms total)
T317C 000:807 JLINK_WriteReg(R5, 0x00000000)  returns 0x00 (0000ms, 0692ms total)
T317C 000:807 JLINK_WriteReg(R6, 0x00000000)  returns 0x00 (0001ms, 0693ms total)
T317C 000:808 JLINK_WriteReg(R7, 0x00000000)  returns 0x00 (0000ms, 0693ms total)
T317C 000:808 JLINK_WriteReg(R8, 0x00000000)  returns 0x00 (0000ms, 0693ms total)
T317C 000:808 JLINK_WriteReg(R9, 0x20000124)  returns 0x00 (0000ms, 0693ms total)
T317C 000:808 JLINK_WriteReg(R10, 0x00000000)  returns 0x00 (0000ms, 0693ms total)
T317C 000:808 JLINK_WriteReg(R11, 0x00000000)  returns 0x00 (0000ms, 0693ms total)
T317C 000:808 JLINK_WriteReg(R12, 0x00000000)  returns 0x00 (0000ms, 0693ms total)
T317C 000:808 JLINK_WriteReg(R13 (SP), 0x20001000)  returns 0x00 (0000ms, 0693ms total)
T317C 000:808 JLINK_WriteReg(R14, 0x20000001)  returns 0x00 (0000ms, 0693ms total)
T317C 000:808 JLINK_WriteReg(R15 (PC), 0x20000020)  returns 0x00 (0000ms, 0693ms total)
T317C 000:808 JLINK_WriteReg(XPSR, 0x01000000)  returns 0x00 (0000ms, 0693ms total)
T317C 000:808 JLINK_WriteReg(MSP, 0x20001000)  returns 0x00 (0000ms, 0693ms total)
T317C 000:808 JLINK_WriteReg(PSP, 0x20001000)  returns 0x00 (0000ms, 0693ms total)
T317C 000:808 JLINK_WriteReg(CFBP, 0x00000000)  returns 0x00 (0000ms, 0693ms total)
T317C 000:808 JLINK_SetBPEx(Addr = 0x20000000, Type = 0xFFFFFFF2)  returns 0x00000002 (0000ms, 0693ms total)
T317C 000:808 JLINK_Go() -- CPU_ReadMem(4 bytes @ 0xE0001000) (0003ms, 0696ms total)
T317C 000:811 JLINK_IsHalted() -- CPU_ReadMem(2 bytes @ 0x20000000)  returns TRUE (0003ms, 0699ms total)
T317C 000:814 JLINK_ReadReg(R15 (PC))  returns 0x20000000 (0000ms, 0696ms total)
T317C 000:814 JLINK_ClrBPEx(BPHandle = 0x00000002)  returns 0x00 (0000ms, 0696ms total)
T317C 000:814 JLINK_ReadReg(R0)  returns 0x00000001 (0000ms, 0696ms total)
T317C 000:814 JLINK_WriteReg(R0, 0x00000000)  returns 0x00 (0000ms, 0696ms total)
T317C 000:814 JLINK_WriteReg(R1, 0x00000400)  returns 0x00 (0000ms, 0696ms total)
T317C 000:814 JLINK_WriteReg(R2, 0x000000FF)  returns 0x00 (0000ms, 0696ms total)
T317C 000:814 JLINK_WriteReg(R3, 0x00000000)  returns 0x00 (0000ms, 0696ms total)
T317C 000:814 JLINK_WriteReg(R4, 0x00000000)  returns 0x00 (0000ms, 0696ms total)
T317C 000:814 JLINK_WriteReg(R5, 0x00000000)  returns 0x00 (0000ms, 0696ms total)
T317C 000:814 JLINK_WriteReg(R6, 0x00000000)  returns 0x00 (0000ms, 0696ms total)
T317C 000:814 JLINK_WriteReg(R7, 0x00000000)  returns 0x00 (0000ms, 0696ms total)
T317C 000:814 JLINK_WriteReg(R8, 0x00000000)  returns 0x00 (0000ms, 0696ms total)
T317C 000:814 JLINK_WriteReg(R9, 0x20000124)  returns 0x00 (0000ms, 0696ms total)
T317C 000:814 JLINK_WriteReg(R10, 0x00000000)  returns 0x00 (0000ms, 0696ms total)
T317C 000:814 JLINK_WriteReg(R11, 0x00000000)  returns 0x00 (0000ms, 0696ms total)
T317C 000:814 JLINK_WriteReg(R12, 0x00000000)  returns 0x00 (0000ms, 0696ms total)
T317C 000:814 JLINK_WriteReg(R13 (SP), 0x20001000)  returns 0x00 (0000ms, 0696ms total)
T317C 000:814 JLINK_WriteReg(R14, 0x20000001)  returns 0x00 (0000ms, 0696ms total)
T317C 000:814 JLINK_WriteReg(R15 (PC), 0x20000070)  returns 0x00 (0000ms, 0696ms total)
T317C 000:814 JLINK_WriteReg(XPSR, 0x01000000)  returns 0x00 (0000ms, 0696ms total)
T317C 000:814 JLINK_WriteReg(MSP, 0x20001000)  returns 0x00 (0000ms, 0696ms total)
T317C 000:814 JLINK_WriteReg(PSP, 0x20001000)  returns 0x00 (0000ms, 0696ms total)
T317C 000:814 JLINK_WriteReg(CFBP, 0x00000000)  returns 0x00 (0000ms, 0696ms total)
T317C 000:814 JLINK_SetBPEx(Addr = 0x20000000, Type = 0xFFFFFFF2)  returns 0x00000003 (0000ms, 0696ms total)
T317C 000:814 JLINK_Go() -- CPU_ReadMem(4 bytes @ 0xE0001000) (0002ms, 0698ms total)
T317C 000:816 JLINK_IsHalted()  returns FALSE (0001ms, 0699ms total)
T317C 001:041 JLINK_IsHalted() -- CPU_ReadMem(2 bytes @ 0x20000000)  returns TRUE (0004ms, 0702ms total)
T317C 001:045 JLINK_ReadReg(R15 (PC))  returns 0x20000000 (0000ms, 0698ms total)
T317C 001:045 JLINK_ClrBPEx(BPHandle = 0x00000003)  returns 0x00 (0000ms, 0698ms total)
T317C 001:045 JLINK_ReadReg(R0)  returns 0x00000000 (0000ms, 0698ms total)
T317C 001:046 JLINK_WriteReg(R0, 0x00000400)  returns 0x00 (0000ms, 0698ms total)
T317C 001:046 JLINK_WriteReg(R1, 0x00000400)  returns 0x00 (0000ms, 0698ms total)
T317C 001:046 JLINK_WriteReg(R2, 0x000000FF)  returns 0x00 (0000ms, 0698ms total)
T317C 001:046 JLINK_WriteReg(R3, 0x00000000)  returns 0x00 (0000ms, 0698ms total)
T317C 001:046 JLINK_WriteReg(R4, 0x00000000)  returns 0x00 (0000ms, 0698ms total)
T317C 001:046 JLINK_WriteReg(R5, 0x00000000)  returns 0x00 (0000ms, 0698ms total)
T317C 001:046 JLINK_WriteReg(R6, 0x00000000)  returns 0x00 (0000ms, 0698ms total)
T317C 001:046 JLINK_WriteReg(R7, 0x00000000)  returns 0x00 (0000ms, 0698ms total)
T317C 001:046 JLINK_WriteReg(R8, 0x00000000)  returns 0x00 (0000ms, 0698ms total)
T317C 001:046 JLINK_WriteReg(R9, 0x20000124)  returns 0x00 (0000ms, 0698ms total)
T317C 001:046 JLINK_WriteReg(R10, 0x00000000)  returns 0x00 (0000ms, 0698ms total)
T317C 001:046 JLINK_WriteReg(R11, 0x00000000)  returns 0x00 (0000ms, 0698ms total)
T317C 001:046 JLINK_WriteReg(R12, 0x00000000)  returns 0x00 (0000ms, 0698ms total)
T317C 001:046 JLINK_WriteReg(R13 (SP), 0x20001000)  returns 0x00 (0000ms, 0698ms total)
T317C 001:046 JLINK_WriteReg(R14, 0x20000001)  returns 0x00 (0000ms, 0698ms total)
T317C 001:046 JLINK_WriteReg(R15 (PC), 0x20000020)  returns 0x00 (0000ms, 0698ms total)
T317C 001:046 JLINK_WriteReg(XPSR, 0x01000000)  returns 0x00 (0000ms, 0698ms total)
T317C 001:046 JLINK_WriteReg(MSP, 0x20001000)  returns 0x00 (0000ms, 0698ms total)
T317C 001:046 JLINK_WriteReg(PSP, 0x20001000)  returns 0x00 (0000ms, 0698ms total)
T317C 001:046 JLINK_WriteReg(CFBP, 0x00000000)  returns 0x00 (0000ms, 0698ms total)
T317C 001:046 JLINK_SetBPEx(Addr = 0x20000000, Type = 0xFFFFFFF2)  returns 0x00000004 (0000ms, 0698ms total)
T317C 001:046 JLINK_Go() -- CPU_ReadMem(4 bytes @ 0xE0001000) (0002ms, 0700ms total)
T317C 001:048 JLINK_IsHalted() -- CPU_ReadMem(2 bytes @ 0x20000000)  returns TRUE (0003ms, 0703ms total)
T317C 001:051 JLINK_ReadReg(R15 (PC))  returns 0x20000000 (0000ms, 0700ms total)
T317C 001:051 JLINK_ClrBPEx(BPHandle = 0x00000004)  returns 0x00 (0000ms, 0700ms total)
T317C 001:051 JLINK_ReadReg(R0)  returns 0x00000001 (0000ms, 0700ms total)
T317C 001:051 JLINK_WriteReg(R0, 0x00000400)  returns 0x00 (0000ms, 0700ms total)
T317C 001:051 JLINK_WriteReg(R1, 0x00000400)  returns 0x00 (0000ms, 0700ms total)
T317C 001:051 JLINK_WriteReg(R2, 0x000000FF)  returns 0x00 (0000ms, 0700ms total)
T317C 001:051 JLINK_WriteReg(R3, 0x00000000)  returns 0x00 (0000ms, 0700ms total)
T317C 001:051 JLINK_WriteReg(R4, 0x00000000)  returns 0x00 (0000ms, 0700ms total)
T317C 001:051 JLINK_WriteReg(R5, 0x00000000)  returns 0x00 (0000ms, 0700ms total)
T317C 001:051 JLINK_WriteReg(R6, 0x00000000)  returns 0x00 (0000ms, 0700ms total)
T317C 001:051 JLINK_WriteReg(R7, 0x00000000)  returns 0x00 (0000ms, 0700ms total)
T317C 001:051 JLINK_WriteReg(R8, 0x00000000)  returns 0x00 (0000ms, 0700ms total)
T317C 001:051 JLINK_WriteReg(R9, 0x20000124)  returns 0x00 (0000ms, 0700ms total)
T317C 001:051 JLINK_WriteReg(R10, 0x00000000)  returns 0x00 (0000ms, 0700ms total)
T317C 001:051 JLINK_WriteReg(R11, 0x00000000)  returns 0x00 (0000ms, 0700ms total)
T317C 001:051 JLINK_WriteReg(R12, 0x00000000)  returns 0x00 (0001ms, 0701ms total)
T317C 001:052 JLINK_WriteReg(R13 (SP), 0x20001000)  returns 0x00 (0000ms, 0701ms total)
T317C 001:052 JLINK_WriteReg(R14, 0x20000001)  returns 0x00 (0000ms, 0701ms total)
T317C 001:052 JLINK_WriteReg(R15 (PC), 0x20000070)  returns 0x00 (0000ms, 0701ms total)
T317C 001:052 JLINK_WriteReg(XPSR, 0x01000000)  returns 0x00 (0000ms, 0701ms total)
T317C 001:052 JLINK_WriteReg(MSP, 0x20001000)  returns 0x00 (0000ms, 0701ms total)
T317C 001:052 JLINK_WriteReg(PSP, 0x20001000)  returns 0x00 (0000ms, 0701ms total)
T317C 001:052 JLINK_WriteReg(CFBP, 0x00000000)  returns 0x00 (0000ms, 0701ms total)
T317C 001:052 JLINK_SetBPEx(Addr = 0x20000000, Type = 0xFFFFFFF2)  returns 0x00000005 (0000ms, 0701ms total)
T317C 001:052 JLINK_Go() -- CPU_ReadMem(4 bytes @ 0xE0001000) (0002ms, 0703ms total)
T317C 001:054 JLINK_IsHalted()  returns FALSE (0001ms, 0704ms total)
T317C 001:066 JLINK_IsHalted() -- CPU_ReadMem(2 bytes @ 0x20000000)  returns TRUE (0003ms, 0706ms total)
T317C 001:069 JLINK_ReadReg(R15 (PC))  returns 0x20000000 (0000ms, 0703ms total)
T317C 001:069 JLINK_ClrBPEx(BPHandle = 0x00000005)  returns 0x00 (0000ms, 0703ms total)
T317C 001:069 JLINK_ReadReg(R0)  returns 0x00000000 (0000ms, 0703ms total)
T317C 001:069 JLINK_WriteReg(R0, 0x00000800)  returns 0x00 (0000ms, 0703ms total)
T317C 001:069 JLINK_WriteReg(R1, 0x00000400)  returns 0x00 (0000ms, 0703ms total)
T317C 001:069 JLINK_WriteReg(R2, 0x000000FF)  returns 0x00 (0000ms, 0703ms total)
T317C 001:069 JLINK_WriteReg(R3, 0x00000000)  returns 0x00 (0000ms, 0703ms total)
T317C 001:069 JLINK_WriteReg(R4, 0x00000000)  returns 0x00 (0000ms, 0703ms total)
T317C 001:069 JLINK_WriteReg(R5, 0x00000000)  returns 0x00 (0000ms, 0703ms total)
T317C 001:069 JLINK_WriteReg(R6, 0x00000000)  returns 0x00 (0000ms, 0703ms total)
T317C 001:069 JLINK_WriteReg(R7, 0x00000000)  returns 0x00 (0000ms, 0703ms total)
T317C 001:069 JLINK_WriteReg(R8, 0x00000000)  returns 0x00 (0000ms, 0703ms total)
T317C 001:069 JLINK_WriteReg(R9, 0x20000124)  returns 0x00 (0000ms, 0703ms total)
T317C 001:069 JLINK_WriteReg(R10, 0x00000000)  returns 0x00 (0000ms, 0703ms total)
T317C 001:069 JLINK_WriteReg(R11, 0x00000000)  returns 0x00 (0000ms, 0703ms total)
T317C 001:069 JLINK_WriteReg(R12, 0x00000000)  returns 0x00 (0000ms, 0703ms total)
T317C 001:069 JLINK_WriteReg(R13 (SP), 0x20001000)  returns 0x00 (0000ms, 0703ms total)
T317C 001:069 JLINK_WriteReg(R14, 0x20000001)  returns 0x00 (0000ms, 0703ms total)
T317C 001:069 JLINK_WriteReg(R15 (PC), 0x20000020)  returns 0x00 (0001ms, 0704ms total)
T317C 001:070 JLINK_WriteReg(XPSR, 0x01000000)  returns 0x00 (0000ms, 0704ms total)
T317C 001:070 JLINK_WriteReg(MSP, 0x20001000)  returns 0x00 (0000ms, 0704ms total)
T317C 001:070 JLINK_WriteReg(PSP, 0x20001000)  returns 0x00 (0000ms, 0704ms total)
T317C 001:070 JLINK_WriteReg(CFBP, 0x00000000)  returns 0x00 (0000ms, 0704ms total)
T317C 001:070 JLINK_SetBPEx(Addr = 0x20000000, Type = 0xFFFFFFF2)  returns 0x00000006 (0000ms, 0704ms total)
T317C 001:070 JLINK_Go() -- CPU_ReadMem(4 bytes @ 0xE0001000) (0007ms, 0711ms total)
T317C 001:077 JLINK_IsHalted() -- CPU_ReadMem(2 bytes @ 0x20000000)  returns TRUE (0005ms, 0716ms total)
T317C 001:082 JLINK_ReadReg(R15 (PC))  returns 0x20000000 (0000ms, 0711ms total)
T317C 001:082 JLINK_ClrBPEx(BPHandle = 0x00000006)  returns 0x00 (0000ms, 0711ms total)
T317C 001:082 JLINK_ReadReg(R0)  returns 0x00000001 (0000ms, 0711ms total)
T317C 001:082 JLINK_WriteReg(R0, 0x00000800)  returns 0x00 (0000ms, 0711ms total)
T317C 001:082 JLINK_WriteReg(R1, 0x00000400)  returns 0x00 (0000ms, 0711ms total)
T317C 001:082 JLINK_WriteReg(R2, 0x000000FF)  returns 0x00 (0000ms, 0711ms total)
T317C 001:082 JLINK_WriteReg(R3, 0x00000000)  returns 0x00 (0000ms, 0711ms total)
T317C 001:082 JLINK_WriteReg(R4, 0x00000000)  returns 0x00 (0000ms, 0711ms total)
T317C 001:082 JLINK_WriteReg(R5, 0x00000000)  returns 0x00 (0000ms, 0711ms total)
T317C 001:082 JLINK_WriteReg(R6, 0x00000000)  returns 0x00 (0000ms, 0711ms total)
T317C 001:082 JLINK_WriteReg(R7, 0x00000000)  returns 0x00 (0000ms, 0711ms total)
T317C 001:082 JLINK_WriteReg(R8, 0x00000000)  returns 0x00 (0000ms, 0711ms total)
T317C 001:082 JLINK_WriteReg(R9, 0x20000124)  returns 0x00 (0000ms, 0711ms total)
T317C 001:082 JLINK_WriteReg(R10, 0x00000000)  returns 0x00 (0000ms, 0711ms total)
T317C 001:082 JLINK_WriteReg(R11, 0x00000000)  returns 0x00 (0000ms, 0711ms total)
T317C 001:082 JLINK_WriteReg(R12, 0x00000000)  returns 0x00 (0000ms, 0711ms total)
T317C 001:082 JLINK_WriteReg(R13 (SP), 0x20001000)  returns 0x00 (0000ms, 0711ms total)
T317C 001:082 JLINK_WriteReg(R14, 0x20000001)  returns 0x00 (0000ms, 0711ms total)
T317C 001:082 JLINK_WriteReg(R15 (PC), 0x20000070)  returns 0x00 (0000ms, 0711ms total)
T317C 001:082 JLINK_WriteReg(XPSR, 0x01000000)  returns 0x00 (0000ms, 0711ms total)
T317C 001:082 JLINK_WriteReg(MSP, 0x20001000)  returns 0x00 (0000ms, 0711ms total)
T317C 001:082 JLINK_WriteReg(PSP, 0x20001000)  returns 0x00 (0000ms, 0711ms total)
T317C 001:082 JLINK_WriteReg(CFBP, 0x00000000)  returns 0x00 (0000ms, 0711ms total)
T317C 001:082 JLINK_SetBPEx(Addr = 0x20000000, Type = 0xFFFFFFF2)  returns 0x00000007 (0000ms, 0711ms total)
T317C 001:082 JLINK_Go() -- CPU_ReadMem(4 bytes @ 0xE0001000) (0002ms, 0713ms total)
T317C 001:084 JLINK_IsHalted()  returns FALSE (0001ms, 0714ms total)
T317C 001:094 JLINK_IsHalted() -- CPU_ReadMem(2 bytes @ 0x20000000)  returns TRUE (0003ms, 0716ms total)
T317C 001:097 JLINK_ReadReg(R15 (PC))  returns 0x20000000 (0000ms, 0713ms total)
T317C 001:097 JLINK_ClrBPEx(BPHandle = 0x00000007)  returns 0x00 (0000ms, 0713ms total)
T317C 001:097 JLINK_ReadReg(R0)  returns 0x00000000 (0000ms, 0713ms total)
T317C 001:097 JLINK_WriteReg(R0, 0x00000C00)  returns 0x00 (0000ms, 0713ms total)
T317C 001:097 JLINK_WriteReg(R1, 0x00000400)  returns 0x00 (0001ms, 0714ms total)
T317C 001:098 JLINK_WriteReg(R2, 0x000000FF)  returns 0x00 (0000ms, 0714ms total)
T317C 001:098 JLINK_WriteReg(R3, 0x00000000)  returns 0x00 (0000ms, 0714ms total)
T317C 001:098 JLINK_WriteReg(R4, 0x00000000)  returns 0x00 (0000ms, 0714ms total)
T317C 001:098 JLINK_WriteReg(R5, 0x00000000)  returns 0x00 (0000ms, 0714ms total)
T317C 001:098 JLINK_WriteReg(R6, 0x00000000)  returns 0x00 (0000ms, 0714ms total)
T317C 001:098 JLINK_WriteReg(R7, 0x00000000)  returns 0x00 (0000ms, 0714ms total)
T317C 001:098 JLINK_WriteReg(R8, 0x00000000)  returns 0x00 (0000ms, 0714ms total)
T317C 001:098 JLINK_WriteReg(R9, 0x20000124)  returns 0x00 (0000ms, 0714ms total)
T317C 001:098 JLINK_WriteReg(R10, 0x00000000)  returns 0x00 (0000ms, 0714ms total)
T317C 001:098 JLINK_WriteReg(R11, 0x00000000)  returns 0x00 (0000ms, 0714ms total)
T317C 001:098 JLINK_WriteReg(R12, 0x00000000)  returns 0x00 (0000ms, 0714ms total)
T317C 001:098 JLINK_WriteReg(R13 (SP), 0x20001000)  returns 0x00 (0000ms, 0714ms total)
T317C 001:098 JLINK_WriteReg(R14, 0x20000001)  returns 0x00 (0000ms, 0714ms total)
T317C 001:098 JLINK_WriteReg(R15 (PC), 0x20000020)  returns 0x00 (0000ms, 0714ms total)
T317C 001:098 JLINK_WriteReg(XPSR, 0x01000000)  returns 0x00 (0000ms, 0714ms total)
T317C 001:098 JLINK_WriteReg(MSP, 0x20001000)  returns 0x00 (0000ms, 0714ms total)
T317C 001:098 JLINK_WriteReg(PSP, 0x20001000)  returns 0x00 (0000ms, 0714ms total)
T317C 001:098 JLINK_WriteReg(CFBP, 0x00000000)  returns 0x00 (0000ms, 0714ms total)
T317C 001:098 JLINK_SetBPEx(Addr = 0x20000000, Type = 0xFFFFFFF2)  returns 0x00000008 (0000ms, 0714ms total)
T317C 001:098 JLINK_Go() -- CPU_ReadMem(4 bytes @ 0xE0001000) (0002ms, 0716ms total)
T317C 001:100 JLINK_IsHalted() -- CPU_ReadMem(2 bytes @ 0x20000000)  returns TRUE (0003ms, 0719ms total)
T317C 001:103 JLINK_ReadReg(R15 (PC))  returns 0x20000000 (0000ms, 0716ms total)
T317C 001:103 JLINK_ClrBPEx(BPHandle = 0x00000008)  returns 0x00 (0000ms, 0716ms total)
T317C 001:103 JLINK_ReadReg(R0)  returns 0x00000001 (0000ms, 0716ms total)
T317C 001:103 JLINK_WriteReg(R0, 0x00000C00)  returns 0x00 (0000ms, 0716ms total)
T317C 001:103 JLINK_WriteReg(R1, 0x00000400)  returns 0x00 (0000ms, 0716ms total)
T317C 001:103 JLINK_WriteReg(R2, 0x000000FF)  returns 0x00 (0000ms, 0716ms total)
T317C 001:103 JLINK_WriteReg(R3, 0x00000000)  returns 0x00 (0000ms, 0716ms total)
T317C 001:103 JLINK_WriteReg(R4, 0x00000000)  returns 0x00 (0000ms, 0716ms total)
T317C 001:103 JLINK_WriteReg(R5, 0x00000000)  returns 0x00 (0000ms, 0716ms total)
T317C 001:103 JLINK_WriteReg(R6, 0x00000000)  returns 0x00 (0000ms, 0716ms total)
T317C 001:103 JLINK_WriteReg(R7, 0x00000000)  returns 0x00 (0000ms, 0716ms total)
T317C 001:103 JLINK_WriteReg(R8, 0x00000000)  returns 0x00 (0000ms, 0716ms total)
T317C 001:103 JLINK_WriteReg(R9, 0x20000124)  returns 0x00 (0000ms, 0716ms total)
T317C 001:103 JLINK_WriteReg(R10, 0x00000000)  returns 0x00 (0000ms, 0716ms total)
T317C 001:103 JLINK_WriteReg(R11, 0x00000000)  returns 0x00 (0001ms, 0717ms total)
T317C 001:104 JLINK_WriteReg(R12, 0x00000000)  returns 0x00 (0000ms, 0717ms total)
T317C 001:104 JLINK_WriteReg(R13 (SP), 0x20001000)  returns 0x00 (0000ms, 0717ms total)
T317C 001:104 JLINK_WriteReg(R14, 0x20000001)  returns 0x00 (0000ms, 0717ms total)
T317C 001:104 JLINK_WriteReg(R15 (PC), 0x20000070)  returns 0x00 (0000ms, 0717ms total)
T317C 001:104 JLINK_WriteReg(XPSR, 0x01000000)  returns 0x00 (0000ms, 0717ms total)
T317C 001:104 JLINK_WriteReg(MSP, 0x20001000)  returns 0x00 (0000ms, 0717ms total)
T317C 001:104 JLINK_WriteReg(PSP, 0x20001000)  returns 0x00 (0000ms, 0717ms total)
T317C 001:104 JLINK_WriteReg(CFBP, 0x00000000)  returns 0x00 (0000ms, 0717ms total)
T317C 001:104 JLINK_SetBPEx(Addr = 0x20000000, Type = 0xFFFFFFF2)  returns 0x00000009 (0000ms, 0717ms total)
T317C 001:104 JLINK_Go() -- CPU_ReadMem(4 bytes @ 0xE0001000) (0002ms, 0719ms total)
T317C 001:106 JLINK_IsHalted()  returns FALSE (0000ms, 0719ms total)
T317C 001:113 JLINK_IsHalted() -- CPU_ReadMem(2 bytes @ 0x20000000)  returns TRUE (0003ms, 0722ms total)
T317C 001:116 JLINK_ReadReg(R15 (PC))  returns 0x20000000 (0000ms, 0719ms total)
T317C 001:116 JLINK_ClrBPEx(BPHandle = 0x00000009)  returns 0x00 (0000ms, 0719ms total)
T317C 001:116 JLINK_ReadReg(R0)  returns 0x00000000 (0000ms, 0719ms total)
T317C 001:118 JLINK_WriteReg(R0, 0x00001000)  returns 0x00 (0000ms, 0719ms total)
T317C 001:118 JLINK_WriteReg(R1, 0x00000400)  returns 0x00 (0001ms, 0720ms total)
T317C 001:119 JLINK_WriteReg(R2, 0x000000FF)  returns 0x00 (0000ms, 0720ms total)
T317C 001:119 JLINK_WriteReg(R3, 0x00000000)  returns 0x00 (0000ms, 0720ms total)
T317C 001:119 JLINK_WriteReg(R4, 0x00000000)  returns 0x00 (0000ms, 0720ms total)
T317C 001:119 JLINK_WriteReg(R5, 0x00000000)  returns 0x00 (0000ms, 0720ms total)
T317C 001:119 JLINK_WriteReg(R6, 0x00000000)  returns 0x00 (0000ms, 0720ms total)
T317C 001:119 JLINK_WriteReg(R7, 0x00000000)  returns 0x00 (0000ms, 0720ms total)
T317C 001:119 JLINK_WriteReg(R8, 0x00000000)  returns 0x00 (0000ms, 0720ms total)
T317C 001:119 JLINK_WriteReg(R9, 0x20000124)  returns 0x00 (0000ms, 0720ms total)
T317C 001:119 JLINK_WriteReg(R10, 0x00000000)  returns 0x00 (0000ms, 0720ms total)
T317C 001:119 JLINK_WriteReg(R11, 0x00000000)  returns 0x00 (0000ms, 0720ms total)
T317C 001:119 JLINK_WriteReg(R12, 0x00000000)  returns 0x00 (0000ms, 0720ms total)
T317C 001:119 JLINK_WriteReg(R13 (SP), 0x20001000)  returns 0x00 (0000ms, 0720ms total)
T317C 001:119 JLINK_WriteReg(R14, 0x20000001)  returns 0x00 (0000ms, 0720ms total)
T317C 001:119 JLINK_WriteReg(R15 (PC), 0x20000020)  returns 0x00 (0000ms, 0720ms total)
T317C 001:119 JLINK_WriteReg(XPSR, 0x01000000)  returns 0x00 (0000ms, 0720ms total)
T317C 001:119 JLINK_WriteReg(MSP, 0x20001000)  returns 0x00 (0000ms, 0720ms total)
T317C 001:119 JLINK_WriteReg(PSP, 0x20001000)  returns 0x00 (0000ms, 0720ms total)
T317C 001:119 JLINK_WriteReg(CFBP, 0x00000000)  returns 0x00 (0000ms, 0720ms total)
T317C 001:119 JLINK_SetBPEx(Addr = 0x20000000, Type = 0xFFFFFFF2)  returns 0x0000000A (0000ms, 0720ms total)
T317C 001:119 JLINK_Go() -- CPU_ReadMem(4 bytes @ 0xE0001000) (0002ms, 0722ms total)
T317C 001:121 JLINK_IsHalted() -- CPU_ReadMem(2 bytes @ 0x20000000)  returns TRUE (0003ms, 0725ms total)
T317C 001:124 JLINK_ReadReg(R15 (PC))  returns 0x20000000 (0000ms, 0722ms total)
T317C 001:125 JLINK_ClrBPEx(BPHandle = 0x0000000A)  returns 0x00 (0000ms, 0722ms total)
T317C 001:125 JLINK_ReadReg(R0)  returns 0x00000001 (0000ms, 0722ms total)
T317C 001:125 JLINK_WriteReg(R0, 0x00001000)  returns 0x00 (0000ms, 0722ms total)
T317C 001:125 JLINK_WriteReg(R1, 0x00000400)  returns 0x00 (0000ms, 0722ms total)
T317C 001:125 JLINK_WriteReg(R2, 0x000000FF)  returns 0x00 (0000ms, 0722ms total)
T317C 001:125 JLINK_WriteReg(R3, 0x00000000)  returns 0x00 (0000ms, 0722ms total)
T317C 001:125 JLINK_WriteReg(R4, 0x00000000)  returns 0x00 (0000ms, 0722ms total)
T317C 001:125 JLINK_WriteReg(R5, 0x00000000)  returns 0x00 (0000ms, 0722ms total)
T317C 001:125 JLINK_WriteReg(R6, 0x00000000)  returns 0x00 (0000ms, 0722ms total)
T317C 001:125 JLINK_WriteReg(R7, 0x00000000)  returns 0x00 (0000ms, 0722ms total)
T317C 001:125 JLINK_WriteReg(R8, 0x00000000)  returns 0x00 (0000ms, 0722ms total)
T317C 001:125 JLINK_WriteReg(R9, 0x20000124)  returns 0x00 (0000ms, 0722ms total)
T317C 001:125 JLINK_WriteReg(R10, 0x00000000)  returns 0x00 (0000ms, 0722ms total)
T317C 001:125 JLINK_WriteReg(R11, 0x00000000)  returns 0x00 (0000ms, 0722ms total)
T317C 001:125 JLINK_WriteReg(R12, 0x00000000)  returns 0x00 (0000ms, 0722ms total)
T317C 001:125 JLINK_WriteReg(R13 (SP), 0x20001000)  returns 0x00 (0000ms, 0722ms total)
T317C 001:125 JLINK_WriteReg(R14, 0x20000001)  returns 0x00 (0000ms, 0722ms total)
T317C 001:125 JLINK_WriteReg(R15 (PC), 0x20000070)  returns 0x00 (0000ms, 0722ms total)
T317C 001:125 JLINK_WriteReg(XPSR, 0x01000000)  returns 0x00 (0000ms, 0722ms total)
T317C 001:125 JLINK_WriteReg(MSP, 0x20001000)  returns 0x00 (0000ms, 0722ms total)
T317C 001:125 JLINK_WriteReg(PSP, 0x20001000)  returns 0x00 (0000ms, 0722ms total)
T317C 001:125 JLINK_WriteReg(CFBP, 0x00000000)  returns 0x00 (0000ms, 0722ms total)
T317C 001:125 JLINK_SetBPEx(Addr = 0x20000000, Type = 0xFFFFFFF2)  returns 0x0000000B (0000ms, 0722ms total)
T317C 001:125 JLINK_Go() -- CPU_ReadMem(4 bytes @ 0xE0001000) (0003ms, 0725ms total)
T317C 001:128 JLINK_IsHalted()  returns FALSE (0000ms, 0725ms total)
T317C 001:133 JLINK_IsHalted()  returns FALSE (0000ms, 0725ms total)
T317C 001:134 JLINK_IsHalted() -- CPU_ReadMem(2 bytes @ 0x20000000)  returns TRUE (0003ms, 0728ms total)
T317C 001:137 JLINK_ReadReg(R15 (PC))  returns 0x20000000 (0000ms, 0725ms total)
T317C 001:137 JLINK_ClrBPEx(BPHandle = 0x0000000B)  returns 0x00 (0000ms, 0725ms total)
T317C 001:137 JLINK_ReadReg(R0)  returns 0x00000000 (0000ms, 0725ms total)
T317C 001:138 JLINK_WriteReg(R0, 0x00000001)  returns 0x00 (0000ms, 0725ms total)
T317C 001:138 JLINK_WriteReg(R1, 0x00000400)  returns 0x00 (0000ms, 0725ms total)
T317C 001:138 JLINK_WriteReg(R2, 0x000000FF)  returns 0x00 (0000ms, 0725ms total)
T317C 001:138 JLINK_WriteReg(R3, 0x00000000)  returns 0x00 (0000ms, 0725ms total)
T317C 001:138 JLINK_WriteReg(R4, 0x00000000)  returns 0x00 (0000ms, 0725ms total)
T317C 001:138 JLINK_WriteReg(R5, 0x00000000)  returns 0x00 (0000ms, 0725ms total)
T317C 001:138 JLINK_WriteReg(R6, 0x00000000)  returns 0x00 (0000ms, 0725ms total)
T317C 001:138 JLINK_WriteReg(R7, 0x00000000)  returns 0x00 (0000ms, 0725ms total)
T317C 001:138 JLINK_WriteReg(R8, 0x00000000)  returns 0x00 (0000ms, 0725ms total)
T317C 001:138 JLINK_WriteReg(R9, 0x20000124)  returns 0x00 (0000ms, 0725ms total)
T317C 001:138 JLINK_WriteReg(R10, 0x00000000)  returns 0x00 (0000ms, 0725ms total)
T317C 001:138 JLINK_WriteReg(R11, 0x00000000)  returns 0x00 (0000ms, 0725ms total)
T317C 001:138 JLINK_WriteReg(R12, 0x00000000)  returns 0x00 (0000ms, 0725ms total)
T317C 001:138 JLINK_WriteReg(R13 (SP), 0x20001000)  returns 0x00 (0000ms, 0725ms total)
T317C 001:138 JLINK_WriteReg(R14, 0x20000001)  returns 0x00 (0000ms, 0725ms total)
T317C 001:138 JLINK_WriteReg(R15 (PC), 0x20000052)  returns 0x00 (0000ms, 0725ms total)
T317C 001:138 JLINK_WriteReg(XPSR, 0x01000000)  returns 0x00 (0000ms, 0725ms total)
T317C 001:138 JLINK_WriteReg(MSP, 0x20001000)  returns 0x00 (0000ms, 0725ms total)
T317C 001:138 JLINK_WriteReg(PSP, 0x20001000)  returns 0x00 (0000ms, 0725ms total)
T317C 001:138 JLINK_WriteReg(CFBP, 0x00000000)  returns 0x00 (0000ms, 0725ms total)
T317C 001:138 JLINK_SetBPEx(Addr = 0x20000000, Type = 0xFFFFFFF2)  returns 0x0000000C (0000ms, 0725ms total)
T317C 001:138 JLINK_Go() -- CPU_ReadMem(4 bytes @ 0xE0001000) (0002ms, 0727ms total)
T317C 001:140 JLINK_IsHalted() -- CPU_ReadMem(2 bytes @ 0x20000000)  returns TRUE (0004ms, 0731ms total)
T317C 001:144 JLINK_ReadReg(R15 (PC))  returns 0x20000000 (0000ms, 0727ms total)
T317C 001:144 JLINK_ClrBPEx(BPHandle = 0x0000000C)  returns 0x00 (0000ms, 0727ms total)
T317C 001:144 JLINK_ReadReg(R0)  returns 0x00000000 (0000ms, 0727ms total)
T317C 001:205 JLINK_WriteMem(0x20000000, 0x0128 Bytes, ...) - Data: 00 BE 0A E0 0D 78 2D 06 68 40 08 24 40 00 00 D3 ... -- CPU_WriteMem(296 bytes @ 0x20000000)  returns 0x128 (0002ms, 0729ms total)
T317C 001:207 JLINK_WriteReg(R0, 0x00000000)  returns 0x00 (0000ms, 0729ms total)
T317C 001:207 JLINK_WriteReg(R1, 0x00B71B00)  returns 0x00 (0000ms, 0729ms total)
T317C 001:207 JLINK_WriteReg(R2, 0x00000002)  returns 0x00 (0000ms, 0729ms total)
T317C 001:207 JLINK_WriteReg(R3, 0x00000000)  returns 0x00 (0000ms, 0729ms total)
T317C 001:207 JLINK_WriteReg(R4, 0x00000000)  returns 0x00 (0000ms, 0729ms total)
T317C 001:207 JLINK_WriteReg(R5, 0x00000000)  returns 0x00 (0000ms, 0729ms total)
T317C 001:207 JLINK_WriteReg(R6, 0x00000000)  returns 0x00 (0000ms, 0729ms total)
T317C 001:207 JLINK_WriteReg(R7, 0x00000000)  returns 0x00 (0000ms, 0729ms total)
T317C 001:207 JLINK_WriteReg(R8, 0x00000000)  returns 0x00 (0000ms, 0729ms total)
T317C 001:207 JLINK_WriteReg(R9, 0x20000124)  returns 0x00 (0000ms, 0729ms total)
T317C 001:207 JLINK_WriteReg(R10, 0x00000000)  returns 0x00 (0000ms, 0729ms total)
T317C 001:207 JLINK_WriteReg(R11, 0x00000000)  returns 0x00 (0000ms, 0729ms total)
T317C 001:207 JLINK_WriteReg(R12, 0x00000000)  returns 0x00 (0000ms, 0729ms total)
T317C 001:207 JLINK_WriteReg(R13 (SP), 0x20001000)  returns 0x00 (0000ms, 0729ms total)
T317C 001:207 JLINK_WriteReg(R14, 0x20000001)  returns 0x00 (0000ms, 0729ms total)
T317C 001:207 JLINK_WriteReg(R15 (PC), 0x20000038)  returns 0x00 (0000ms, 0729ms total)
T317C 001:207 JLINK_WriteReg(XPSR, 0x01000000)  returns 0x00 (0000ms, 0729ms total)
T317C 001:207 JLINK_WriteReg(MSP, 0x20001000)  returns 0x00 (0001ms, 0730ms total)
T317C 001:208 JLINK_WriteReg(PSP, 0x20001000)  returns 0x00 (0000ms, 0730ms total)
T317C 001:208 JLINK_WriteReg(CFBP, 0x00000000)  returns 0x00 (0000ms, 0730ms total)
T317C 001:208 JLINK_SetBPEx(Addr = 0x20000000, Type = 0xFFFFFFF2) -- CPU_ReadMem(2 bytes @ 0x20000000)  returns 0x0000000D (0000ms, 0730ms total)
T317C 001:208 JLINK_Go() -- CPU_WriteMem(2 bytes @ 0x20000000) -- CPU_ReadMem(4 bytes @ 0xE0001000) (0003ms, 0733ms total)
T317C 001:211 JLINK_IsHalted() -- CPU_ReadMem(2 bytes @ 0x20000000)  returns TRUE (0004ms, 0737ms total)
T317C 001:215 JLINK_ReadReg(R15 (PC))  returns 0x20000000 (0000ms, 0733ms total)
T317C 001:215 JLINK_ClrBPEx(BPHandle = 0x0000000D)  returns 0x00 (0000ms, 0733ms total)
T317C 001:215 JLINK_ReadReg(R0)  returns 0x00000000 (0000ms, 0733ms total)
T317C 001:215 JLINK_WriteMem(0x20000128, 0x0400 Bytes, ...) - Data: 70 01 00 20 6D 02 00 00 81 02 00 00 83 02 00 00 ... -- CPU_WriteMem(1024 bytes @ 0x20000128)  returns 0x400 (0006ms, 0739ms total)
T317C 001:221 JLINK_WriteReg(R0, 0x00000000)  returns 0x00 (0000ms, 0739ms total)
T317C 001:221 JLINK_WriteReg(R1, 0x00000400)  returns 0x00 (0000ms, 0739ms total)
T317C 001:221 JLINK_WriteReg(R2, 0x20000128)  returns 0x00 (0000ms, 0739ms total)
T317C 001:221 JLINK_WriteReg(R3, 0x00000000)  returns 0x00 (0000ms, 0739ms total)
T317C 001:221 JLINK_WriteReg(R4, 0x00000000)  returns 0x00 (0000ms, 0739ms total)
T317C 001:221 JLINK_WriteReg(R5, 0x00000000)  returns 0x00 (0000ms, 0739ms total)
T317C 001:221 JLINK_WriteReg(R6, 0x00000000)  returns 0x00 (0000ms, 0739ms total)
T317C 001:221 JLINK_WriteReg(R7, 0x00000000)  returns 0x00 (0001ms, 0740ms total)
T317C 001:222 JLINK_WriteReg(R8, 0x00000000)  returns 0x00 (0000ms, 0740ms total)
T317C 001:222 JLINK_WriteReg(R9, 0x20000124)  returns 0x00 (0000ms, 0740ms total)
T317C 001:222 JLINK_WriteReg(R10, 0x00000000)  returns 0x00 (0000ms, 0740ms total)
T317C 001:222 JLINK_WriteReg(R11, 0x00000000)  returns 0x00 (0000ms, 0740ms total)
T317C 001:222 JLINK_WriteReg(R12, 0x00000000)  returns 0x00 (0000ms, 0740ms total)
T317C 001:222 JLINK_WriteReg(R13 (SP), 0x20001000)  returns 0x00 (0000ms, 0740ms total)
T317C 001:222 JLINK_WriteReg(R14, 0x20000001)  returns 0x00 (0000ms, 0740ms total)
T317C 001:222 JLINK_WriteReg(R15 (PC), 0x20000092)  returns 0x00 (0000ms, 0740ms total)
T317C 001:222 JLINK_WriteReg(XPSR, 0x01000000)  returns 0x00 (0000ms, 0740ms total)
T317C 001:222 JLINK_WriteReg(MSP, 0x20001000)  returns 0x00 (0000ms, 0740ms total)
T317C 001:222 JLINK_WriteReg(PSP, 0x20001000)  returns 0x00 (0000ms, 0740ms total)
T317C 001:222 JLINK_WriteReg(CFBP, 0x00000000)  returns 0x00 (0000ms, 0740ms total)
T317C 001:222 JLINK_SetBPEx(Addr = 0x20000000, Type = 0xFFFFFFF2)  returns 0x0000000E (0000ms, 0740ms total)
T317C 001:222 JLINK_Go() -- CPU_ReadMem(4 bytes @ 0xE0001000) (0002ms, 0742ms total)
T317C 001:224 JLINK_IsHalted()  returns FALSE (0000ms, 0742ms total)
T317C 001:251 JLINK_IsHalted() -- CPU_ReadMem(2 bytes @ 0x20000000)  returns TRUE (0003ms, 0745ms total)
T317C 001:254 JLINK_ReadReg(R15 (PC))  returns 0x20000000 (0000ms, 0742ms total)
T317C 001:254 JLINK_ClrBPEx(BPHandle = 0x0000000E)  returns 0x00 (0000ms, 0742ms total)
T317C 001:254 JLINK_ReadReg(R0)  returns 0x00000000 (0000ms, 0742ms total)
T317C 001:254 JLINK_WriteMem(0x20000128, 0x0400 Bytes, ...) - Data: AC 46 AC E8 C0 09 AC E8 C0 09 AC E8 C0 09 AC E8 ... -- CPU_WriteMem(1024 bytes @ 0x20000128)  returns 0x400 (0006ms, 0748ms total)
T317C 001:261 JLINK_WriteReg(R0, 0x00000400)  returns 0x00 (0000ms, 0748ms total)
T317C 001:261 JLINK_WriteReg(R1, 0x00000400)  returns 0x00 (0000ms, 0748ms total)
T317C 001:261 JLINK_WriteReg(R2, 0x20000128)  returns 0x00 (0000ms, 0748ms total)
T317C 001:261 JLINK_WriteReg(R3, 0x00000000)  returns 0x00 (0000ms, 0748ms total)
T317C 001:261 JLINK_WriteReg(R4, 0x00000000)  returns 0x00 (0000ms, 0748ms total)
T317C 001:261 JLINK_WriteReg(R5, 0x00000000)  returns 0x00 (0000ms, 0748ms total)
T317C 001:261 JLINK_WriteReg(R6, 0x00000000)  returns 0x00 (0000ms, 0748ms total)
T317C 001:261 JLINK_WriteReg(R7, 0x00000000)  returns 0x00 (0000ms, 0748ms total)
T317C 001:261 JLINK_WriteReg(R8, 0x00000000)  returns 0x00 (0000ms, 0748ms total)
T317C 001:261 JLINK_WriteReg(R9, 0x20000124)  returns 0x00 (0000ms, 0748ms total)
T317C 001:261 JLINK_WriteReg(R10, 0x00000000)  returns 0x00 (0000ms, 0748ms total)
T317C 001:261 JLINK_WriteReg(R11, 0x00000000)  returns 0x00 (0000ms, 0748ms total)
T317C 001:261 JLINK_WriteReg(R12, 0x00000000)  returns 0x00 (0000ms, 0748ms total)
T317C 001:261 JLINK_WriteReg(R13 (SP), 0x20001000)  returns 0x00 (0000ms, 0748ms total)
T317C 001:261 JLINK_WriteReg(R14, 0x20000001)  returns 0x00 (0000ms, 0748ms total)
T317C 001:261 JLINK_WriteReg(R15 (PC), 0x20000092)  returns 0x00 (0000ms, 0748ms total)
T317C 001:261 JLINK_WriteReg(XPSR, 0x01000000)  returns 0x00 (0000ms, 0748ms total)
T317C 001:261 JLINK_WriteReg(MSP, 0x20001000)  returns 0x00 (0000ms, 0748ms total)
T317C 001:261 JLINK_WriteReg(PSP, 0x20001000)  returns 0x00 (0000ms, 0748ms total)
T317C 001:261 JLINK_WriteReg(CFBP, 0x00000000)  returns 0x00 (0000ms, 0748ms total)
T317C 001:261 JLINK_SetBPEx(Addr = 0x20000000, Type = 0xFFFFFFF2)  returns 0x0000000F (0000ms, 0748ms total)
T317C 001:261 JLINK_Go() -- CPU_ReadMem(4 bytes @ 0xE0001000) (0002ms, 0750ms total)
T317C 001:263 JLINK_IsHalted()  returns FALSE (0001ms, 0751ms total)
T317C 001:267 JLINK_IsHalted()  returns FALSE (0000ms, 0750ms total)
T317C 001:268 JLINK_IsHalted()  returns FALSE (0000ms, 0750ms total)
T317C 001:269 JLINK_IsHalted()  returns FALSE (0000ms, 0750ms total)
T317C 001:270 JLINK_IsHalted()  returns FALSE (0001ms, 0751ms total)
T317C 001:272 JLINK_IsHalted() -- CPU_ReadMem(2 bytes @ 0x20000000)  returns TRUE (0005ms, 0755ms total)
T317C 001:277 JLINK_ReadReg(R15 (PC))  returns 0x20000000 (0000ms, 0750ms total)
T317C 001:277 JLINK_ClrBPEx(BPHandle = 0x0000000F)  returns 0x00 (0000ms, 0750ms total)
T317C 001:277 JLINK_ReadReg(R0)  returns 0x00000000 (0000ms, 0750ms total)
T317C 001:278 JLINK_WriteMem(0x20000128, 0x0400 Bytes, ...) - Data: 01 21 91 40 A0 F1 10 02 52 09 03 4B 53 F8 22 20 ... -- CPU_WriteMem(1024 bytes @ 0x20000128)  returns 0x400 (0007ms, 0757ms total)
T317C 001:285 JLINK_WriteReg(R0, 0x00000800)  returns 0x00 (0000ms, 0757ms total)
T317C 001:285 JLINK_WriteReg(R1, 0x00000400)  returns 0x00 (0000ms, 0757ms total)
T317C 001:285 JLINK_WriteReg(R2, 0x20000128)  returns 0x00 (0000ms, 0757ms total)
T317C 001:285 JLINK_WriteReg(R3, 0x00000000)  returns 0x00 (0000ms, 0757ms total)
T317C 001:285 JLINK_WriteReg(R4, 0x00000000)  returns 0x00 (0000ms, 0757ms total)
T317C 001:285 JLINK_WriteReg(R5, 0x00000000)  returns 0x00 (0000ms, 0757ms total)
T317C 001:285 JLINK_WriteReg(R6, 0x00000000)  returns 0x00 (0000ms, 0757ms total)
T317C 001:285 JLINK_WriteReg(R7, 0x00000000)  returns 0x00 (0000ms, 0757ms total)
T317C 001:285 JLINK_WriteReg(R8, 0x00000000)  returns 0x00 (0000ms, 0757ms total)
T317C 001:285 JLINK_WriteReg(R9, 0x20000124)  returns 0x00 (0000ms, 0757ms total)
T317C 001:285 JLINK_WriteReg(R10, 0x00000000)  returns 0x00 (0000ms, 0757ms total)
T317C 001:285 JLINK_WriteReg(R11, 0x00000000)  returns 0x00 (0000ms, 0757ms total)
T317C 001:285 JLINK_WriteReg(R12, 0x00000000)  returns 0x00 (0000ms, 0757ms total)
T317C 001:285 JLINK_WriteReg(R13 (SP), 0x20001000)  returns 0x00 (0000ms, 0757ms total)
T317C 001:285 JLINK_WriteReg(R14, 0x20000001)  returns 0x00 (0000ms, 0757ms total)
T317C 001:285 JLINK_WriteReg(R15 (PC), 0x20000092)  returns 0x00 (0000ms, 0757ms total)
T317C 001:285 JLINK_WriteReg(XPSR, 0x01000000)  returns 0x00 (0000ms, 0757ms total)
T317C 001:285 JLINK_WriteReg(MSP, 0x20001000)  returns 0x00 (0000ms, 0757ms total)
T317C 001:285 JLINK_WriteReg(PSP, 0x20001000)  returns 0x00 (0000ms, 0757ms total)
T317C 001:285 JLINK_WriteReg(CFBP, 0x00000000)  returns 0x00 (0000ms, 0757ms total)
T317C 001:285 JLINK_SetBPEx(Addr = 0x20000000, Type = 0xFFFFFFF2)  returns 0x00000010 (0000ms, 0757ms total)
T317C 001:285 JLINK_Go() -- CPU_ReadMem(4 bytes @ 0xE0001000) (0002ms, 0759ms total)
T317C 001:287 JLINK_IsHalted()  returns FALSE (0001ms, 0760ms total)
T317C 001:290 JLINK_IsHalted()  returns FALSE (0000ms, 0759ms total)
T317C 001:296 JLINK_IsHalted()  returns FALSE (0000ms, 0759ms total)
T317C 001:297 JLINK_IsHalted() -- CPU_ReadMem(2 bytes @ 0x20000000)  returns TRUE (0003ms, 0762ms total)
T317C 001:300 JLINK_ReadReg(R15 (PC))  returns 0x20000000 (0000ms, 0759ms total)
T317C 001:300 JLINK_ClrBPEx(BPHandle = 0x00000010)  returns 0x00 (0000ms, 0759ms total)
T317C 001:300 JLINK_ReadReg(R0)  returns 0x00000000 (0000ms, 0759ms total)
T317C 001:300 JLINK_WriteMem(0x20000128, 0x0400 Bytes, ...) - Data: 47 F2 30 50 0C D0 70 28 08 BF 4F F4 00 40 07 D0 ... -- CPU_WriteMem(1024 bytes @ 0x20000128)  returns 0x400 (0006ms, 0765ms total)
T317C 001:306 JLINK_WriteReg(R0, 0x00000C00)  returns 0x00 (0001ms, 0766ms total)
T317C 001:307 JLINK_WriteReg(R1, 0x00000400)  returns 0x00 (0000ms, 0766ms total)
T317C 001:307 JLINK_WriteReg(R2, 0x20000128)  returns 0x00 (0000ms, 0766ms total)
T317C 001:307 JLINK_WriteReg(R3, 0x00000000)  returns 0x00 (0000ms, 0766ms total)
T317C 001:307 JLINK_WriteReg(R4, 0x00000000)  returns 0x00 (0000ms, 0766ms total)
T317C 001:307 JLINK_WriteReg(R5, 0x00000000)  returns 0x00 (0000ms, 0766ms total)
T317C 001:307 JLINK_WriteReg(R6, 0x00000000)  returns 0x00 (0000ms, 0766ms total)
T317C 001:307 JLINK_WriteReg(R7, 0x00000000)  returns 0x00 (0000ms, 0766ms total)
T317C 001:307 JLINK_WriteReg(R8, 0x00000000)  returns 0x00 (0000ms, 0766ms total)
T317C 001:307 JLINK_WriteReg(R9, 0x20000124)  returns 0x00 (0000ms, 0766ms total)
T317C 001:307 JLINK_WriteReg(R10, 0x00000000)  returns 0x00 (0000ms, 0766ms total)
T317C 001:307 JLINK_WriteReg(R11, 0x00000000)  returns 0x00 (0000ms, 0766ms total)
T317C 001:307 JLINK_WriteReg(R12, 0x00000000)  returns 0x00 (0000ms, 0766ms total)
T317C 001:307 JLINK_WriteReg(R13 (SP), 0x20001000)  returns 0x00 (0000ms, 0766ms total)
T317C 001:307 JLINK_WriteReg(R14, 0x20000001)  returns 0x00 (0000ms, 0766ms total)
T317C 001:307 JLINK_WriteReg(R15 (PC), 0x20000092)  returns 0x00 (0000ms, 0766ms total)
T317C 001:307 JLINK_WriteReg(XPSR, 0x01000000)  returns 0x00 (0000ms, 0766ms total)
T317C 001:307 JLINK_WriteReg(MSP, 0x20001000)  returns 0x00 (0000ms, 0766ms total)
T317C 001:307 JLINK_WriteReg(PSP, 0x20001000)  returns 0x00 (0000ms, 0766ms total)
T317C 001:307 JLINK_WriteReg(CFBP, 0x00000000)  returns 0x00 (0000ms, 0766ms total)
T317C 001:307 JLINK_SetBPEx(Addr = 0x20000000, Type = 0xFFFFFFF2)  returns 0x00000011 (0000ms, 0766ms total)
T317C 001:307 JLINK_Go() -- CPU_ReadMem(4 bytes @ 0xE0001000) (0002ms, 0768ms total)
T317C 001:309 JLINK_IsHalted()  returns FALSE (0001ms, 0769ms total)
T317C 001:313 JLINK_IsHalted()  returns FALSE (0000ms, 0768ms total)
T317C 001:314 JLINK_IsHalted()  returns FALSE (0000ms, 0768ms total)
T317C 001:315 JLINK_IsHalted()  returns FALSE (0000ms, 0768ms total)
T317C 001:316 JLINK_IsHalted()  returns FALSE (0000ms, 0768ms total)
